
Circuit: SPICE WEB SIMULATION

Circuit: SPICE WEB SIMULATION
Date: Sun Sep 22 21:13:52  2002


                              SPICE WEB SIMULATION
                              AC Analysis  Sun Sep 22 21:13:52  2002
--------------------------------------------------------------------------------
Index   frequency                       v(n0)                           
--------------------------------------------------------------------------------
0	1.000000e+00,	0.000000e+00	1.000000e+00,	0.000000e+00	
1	1.122018e+00,	0.000000e+00	1.000000e+00,	0.000000e+00	
2	1.258925e+00,	0.000000e+00	1.000000e+00,	0.000000e+00	
3	1.412538e+00,	0.000000e+00	1.000000e+00,	0.000000e+00	
4	1.584893e+00,	0.000000e+00	1.000000e+00,	0.000000e+00	
5	1.778279e+00,	0.000000e+00	1.000000e+00,	0.000000e+00	
6	1.995262e+00,	0.000000e+00	1.000000e+00,	0.000000e+00	
7	2.238721e+00,	0.000000e+00	1.000000e+00,	0.000000e+00	
8	2.511886e+00,	0.000000e+00	1.000000e+00,	0.000000e+00	
9	2.818383e+00,	0.000000e+00	1.000000e+00,	0.000000e+00	
10	3.162278e+00,	0.000000e+00	1.000000e+00,	0.000000e+00	
11	3.548134e+00,	0.000000e+00	1.000000e+00,	0.000000e+00	
12	3.981072e+00,	0.000000e+00	1.000000e+00,	0.000000e+00	
13	4.466836e+00,	0.000000e+00	1.000000e+00,	0.000000e+00	
14	5.011872e+00,	0.000000e+00	1.000000e+00,	0.000000e+00	
15	5.623413e+00,	0.000000e+00	1.000000e+00,	0.000000e+00	
16	6.309573e+00,	0.000000e+00	1.000000e+00,	0.000000e+00	
17	7.079458e+00,	0.000000e+00	1.000000e+00,	0.000000e+00	
18	7.943282e+00,	0.000000e+00	1.000000e+00,	0.000000e+00	
19	8.912509e+00,	0.000000e+00	1.000000e+00,	0.000000e+00	
20	1.000000e+01,	0.000000e+00	1.000000e+00,	0.000000e+00	
21	1.122018e+01,	0.000000e+00	1.000000e+00,	0.000000e+00	
22	1.258925e+01,	0.000000e+00	1.000000e+00,	0.000000e+00	
23	1.412538e+01,	0.000000e+00	1.000000e+00,	0.000000e+00	
24	1.584893e+01,	0.000000e+00	1.000000e+00,	0.000000e+00	
25	1.778279e+01,	0.000000e+00	1.000000e+00,	0.000000e+00	
26	1.995262e+01,	0.000000e+00	1.000000e+00,	0.000000e+00	
27	2.238721e+01,	0.000000e+00	1.000000e+00,	0.000000e+00	
28	2.511886e+01,	0.000000e+00	1.000000e+00,	0.000000e+00	
29	2.818383e+01,	0.000000e+00	1.000000e+00,	0.000000e+00	
30	3.162278e+01,	0.000000e+00	1.000000e+00,	0.000000e+00	
31	3.548134e+01,	0.000000e+00	1.000000e+00,	0.000000e+00	
32	3.981072e+01,	0.000000e+00	1.000000e+00,	0.000000e+00	
33	4.466836e+01,	0.000000e+00	1.000000e+00,	0.000000e+00	
34	5.011872e+01,	0.000000e+00	1.000000e+00,	0.000000e+00	
35	5.623413e+01,	0.000000e+00	1.000000e+00,	0.000000e+00	
36	6.309573e+01,	0.000000e+00	1.000000e+00,	0.000000e+00	
37	7.079458e+01,	0.000000e+00	1.000000e+00,	0.000000e+00	
38	7.943282e+01,	0.000000e+00	1.000000e+00,	0.000000e+00	
39	8.912509e+01,	0.000000e+00	1.000000e+00,	0.000000e+00	
40	1.000000e+02,	0.000000e+00	1.000000e+00,	0.000000e+00	
41	1.122018e+02,	0.000000e+00	1.000000e+00,	0.000000e+00	
42	1.258925e+02,	0.000000e+00	1.000000e+00,	0.000000e+00	
43	1.412538e+02,	0.000000e+00	1.000000e+00,	0.000000e+00	
44	1.584893e+02,	0.000000e+00	1.000000e+00,	0.000000e+00	
45	1.778279e+02,	0.000000e+00	1.000000e+00,	0.000000e+00	
46	1.995262e+02,	0.000000e+00	1.000000e+00,	0.000000e+00	
47	2.238721e+02,	0.000000e+00	1.000000e+00,	0.000000e+00	
48	2.511886e+02,	0.000000e+00	1.000000e+00,	0.000000e+00	
49	2.818383e+02,	0.000000e+00	1.000000e+00,	0.000000e+00	
50	3.162278e+02,	0.000000e+00	1.000000e+00,	0.000000e+00	
51	3.548134e+02,	0.000000e+00	1.000000e+00,	0.000000e+00	
52	3.981072e+02,	0.000000e+00	1.000000e+00,	0.000000e+00	
53	4.466836e+02,	0.000000e+00	1.000000e+00,	0.000000e+00	
54	5.011872e+02,	0.000000e+00	1.000000e+00,	0.000000e+00	
55	5.623413e+02,	0.000000e+00	1.000000e+00,	0.000000e+00	
56	6.309573e+02,	0.000000e+00	1.000000e+00,	0.000000e+00	
57	7.079458e+02,	0.000000e+00	1.000000e+00,	0.000000e+00	
58	7.943282e+02,	0.000000e+00	1.000000e+00,	0.000000e+00	
59	8.912509e+02,	0.000000e+00	1.000000e+00,	0.000000e+00	
60	1.000000e+03,	0.000000e+00	1.000000e+00,	0.000000e+00	
61	1.122018e+03,	0.000000e+00	1.000000e+00,	0.000000e+00	
62	1.258925e+03,	0.000000e+00	1.000000e+00,	0.000000e+00	
63	1.412538e+03,	0.000000e+00	1.000000e+00,	0.000000e+00	
64	1.584893e+03,	0.000000e+00	1.000000e+00,	0.000000e+00	
65	1.778279e+03,	0.000000e+00	1.000000e+00,	0.000000e+00	
66	1.995262e+03,	0.000000e+00	1.000000e+00,	0.000000e+00	
67	2.238721e+03,	0.000000e+00	1.000000e+00,	0.000000e+00	
68	2.511886e+03,	0.000000e+00	1.000000e+00,	0.000000e+00	
69	2.818383e+03,	0.000000e+00	1.000000e+00,	0.000000e+00	
70	3.162278e+03,	0.000000e+00	1.000000e+00,	0.000000e+00	
71	3.548134e+03,	0.000000e+00	1.000000e+00,	0.000000e+00	
72	3.981072e+03,	0.000000e+00	1.000000e+00,	0.000000e+00	
73	4.466836e+03,	0.000000e+00	1.000000e+00,	0.000000e+00	
74	5.011872e+03,	0.000000e+00	1.000000e+00,	0.000000e+00	
75	5.623413e+03,	0.000000e+00	1.000000e+00,	0.000000e+00	
76	6.309573e+03,	0.000000e+00	1.000000e+00,	0.000000e+00	
77	7.079458e+03,	0.000000e+00	1.000000e+00,	0.000000e+00	
78	7.943282e+03,	0.000000e+00	1.000000e+00,	0.000000e+00	
79	8.912509e+03,	0.000000e+00	1.000000e+00,	0.000000e+00	
80	1.000000e+04,	0.000000e+00	1.000000e+00,	0.000000e+00	
81	1.122018e+04,	0.000000e+00	1.000000e+00,	0.000000e+00	
82	1.258925e+04,	0.000000e+00	1.000000e+00,	0.000000e+00	
83	1.412538e+04,	0.000000e+00	1.000000e+00,	0.000000e+00	
84	1.584893e+04,	0.000000e+00	1.000000e+00,	0.000000e+00	
85	1.778279e+04,	0.000000e+00	1.000000e+00,	0.000000e+00	
86	1.995262e+04,	0.000000e+00	1.000000e+00,	0.000000e+00	
87	2.238721e+04,	0.000000e+00	1.000000e+00,	0.000000e+00	
88	2.511886e+04,	0.000000e+00	1.000000e+00,	0.000000e+00	
89	2.818383e+04,	0.000000e+00	1.000000e+00,	0.000000e+00	
90	3.162278e+04,	0.000000e+00	1.000000e+00,	0.000000e+00	
91	3.548134e+04,	0.000000e+00	1.000000e+00,	0.000000e+00	
92	3.981072e+04,	0.000000e+00	1.000000e+00,	0.000000e+00	
93	4.466836e+04,	0.000000e+00	1.000000e+00,	0.000000e+00	
94	5.011872e+04,	0.000000e+00	1.000000e+00,	0.000000e+00	
95	5.623413e+04,	0.000000e+00	1.000000e+00,	0.000000e+00	
96	6.309573e+04,	0.000000e+00	1.000000e+00,	0.000000e+00	
97	7.079458e+04,	0.000000e+00	1.000000e+00,	0.000000e+00	
98	7.943282e+04,	0.000000e+00	1.000000e+00,	0.000000e+00	
99	8.912509e+04,	0.000000e+00	1.000000e+00,	0.000000e+00	
100	1.000000e+05,	0.000000e+00	1.000000e+00,	0.000000e+00	
101	1.122018e+05,	0.000000e+00	1.000000e+00,	0.000000e+00	
102	1.258925e+05,	0.000000e+00	1.000000e+00,	0.000000e+00	
103	1.412538e+05,	0.000000e+00	1.000000e+00,	0.000000e+00	
104	1.584893e+05,	0.000000e+00	1.000000e+00,	0.000000e+00	
105	1.778279e+05,	0.000000e+00	1.000000e+00,	0.000000e+00	
106	1.995262e+05,	0.000000e+00	1.000000e+00,	0.000000e+00	
107	2.238721e+05,	0.000000e+00	1.000000e+00,	0.000000e+00	
108	2.511886e+05,	0.000000e+00	1.000000e+00,	0.000000e+00	
109	2.818383e+05,	0.000000e+00	1.000000e+00,	0.000000e+00	
110	3.162278e+05,	0.000000e+00	1.000000e+00,	0.000000e+00	
111	3.548134e+05,	0.000000e+00	1.000000e+00,	0.000000e+00	
112	3.981072e+05,	0.000000e+00	1.000000e+00,	0.000000e+00	
113	4.466836e+05,	0.000000e+00	1.000000e+00,	0.000000e+00	
114	5.011872e+05,	0.000000e+00	1.000000e+00,	0.000000e+00	
115	5.623413e+05,	0.000000e+00	1.000000e+00,	0.000000e+00	
116	6.309573e+05,	0.000000e+00	1.000000e+00,	0.000000e+00	
117	7.079458e+05,	0.000000e+00	1.000000e+00,	0.000000e+00	
118	7.943282e+05,	0.000000e+00	1.000000e+00,	0.000000e+00	
119	8.912509e+05,	0.000000e+00	1.000000e+00,	0.000000e+00	
120	1.000000e+06,	0.000000e+00	1.000000e+00,	0.000000e+00	
121	1.122018e+06,	0.000000e+00	1.000000e+00,	0.000000e+00	
122	1.258925e+06,	0.000000e+00	1.000000e+00,	0.000000e+00	
123	1.412538e+06,	0.000000e+00	1.000000e+00,	0.000000e+00	
124	1.584893e+06,	0.000000e+00	1.000000e+00,	0.000000e+00	
125	1.778279e+06,	0.000000e+00	1.000000e+00,	0.000000e+00	
126	1.995262e+06,	0.000000e+00	1.000000e+00,	0.000000e+00	
127	2.238721e+06,	0.000000e+00	1.000000e+00,	0.000000e+00	
128	2.511886e+06,	0.000000e+00	1.000000e+00,	0.000000e+00	
129	2.818383e+06,	0.000000e+00	1.000000e+00,	0.000000e+00	
130	3.162278e+06,	0.000000e+00	1.000000e+00,	0.000000e+00	
131	3.548134e+06,	0.000000e+00	1.000000e+00,	0.000000e+00	
132	3.981072e+06,	0.000000e+00	1.000000e+00,	0.000000e+00	
133	4.466836e+06,	0.000000e+00	1.000000e+00,	0.000000e+00	
134	5.011872e+06,	0.000000e+00	1.000000e+00,	0.000000e+00	
135	5.623413e+06,	0.000000e+00	1.000000e+00,	0.000000e+00	
136	6.309573e+06,	0.000000e+00	1.000000e+00,	0.000000e+00	
137	7.079458e+06,	0.000000e+00	1.000000e+00,	0.000000e+00	
138	7.943282e+06,	0.000000e+00	1.000000e+00,	0.000000e+00	
139	8.912509e+06,	0.000000e+00	1.000000e+00,	0.000000e+00	
140	1.000000e+07,	0.000000e+00	1.000000e+00,	0.000000e+00	
141	1.122018e+07,	0.000000e+00	1.000000e+00,	0.000000e+00	
142	1.258925e+07,	0.000000e+00	1.000000e+00,	0.000000e+00	
143	1.412538e+07,	0.000000e+00	1.000000e+00,	0.000000e+00	
144	1.584893e+07,	0.000000e+00	1.000000e+00,	0.000000e+00	
145	1.778279e+07,	0.000000e+00	1.000000e+00,	0.000000e+00	
146	1.995262e+07,	0.000000e+00	1.000000e+00,	0.000000e+00	
147	2.238721e+07,	0.000000e+00	1.000000e+00,	0.000000e+00	
148	2.511886e+07,	0.000000e+00	1.000000e+00,	0.000000e+00	
149	2.818383e+07,	0.000000e+00	1.000000e+00,	0.000000e+00	
150	3.162278e+07,	0.000000e+00	1.000000e+00,	0.000000e+00	
151	3.548134e+07,	0.000000e+00	1.000000e+00,	0.000000e+00	
152	3.981072e+07,	0.000000e+00	1.000000e+00,	0.000000e+00	
153	4.466836e+07,	0.000000e+00	1.000000e+00,	0.000000e+00	
154	5.011872e+07,	0.000000e+00	1.000000e+00,	0.000000e+00	
155	5.623413e+07,	0.000000e+00	1.000000e+00,	0.000000e+00	
156	6.309573e+07,	0.000000e+00	1.000000e+00,	0.000000e+00	
157	7.079458e+07,	0.000000e+00	1.000000e+00,	0.000000e+00	
158	7.943282e+07,	0.000000e+00	1.000000e+00,	0.000000e+00	
159	8.912509e+07,	0.000000e+00	1.000000e+00,	0.000000e+00	
160	1.000000e+08,	0.000000e+00	1.000000e+00,	0.000000e+00	

                              SPICE WEB SIMULATION
                              AC Analysis  Sun Sep 22 21:13:52  2002
--------------------------------------------------------------------------------
Index   frequency                       v(n1)                           
--------------------------------------------------------------------------------
0	1.000000e+00,	0.000000e+00	1.000000e-00,	-6.283185e-06	
1	1.122018e+00,	0.000000e+00	1.000000e-00,	-7.049850e-06	
2	1.258925e+00,	0.000000e+00	1.000000e-00,	-7.910062e-06	
3	1.412538e+00,	0.000000e+00	1.000000e-00,	-8.875235e-06	
4	1.584893e+00,	0.000000e+00	1.000000e-00,	-9.958178e-06	
5	1.778279e+00,	0.000000e+00	1.000000e-00,	-1.117326e-05	
6	1.995262e+00,	0.000000e+00	1.000000e-00,	-1.253660e-05	
7	2.238721e+00,	0.000000e+00	1.000000e-00,	-1.406630e-05	
8	2.511886e+00,	0.000000e+00	1.000000e-00,	-1.578265e-05	
9	2.818383e+00,	0.000000e+00	1.000000e-00,	-1.770842e-05	
10	3.162278e+00,	0.000000e+00	1.000000e-00,	-1.986918e-05	
11	3.548134e+00,	0.000000e+00	1.000000e-00,	-2.229358e-05	
12	3.981072e+00,	0.000000e+00	1.000000e-00,	-2.501381e-05	
13	4.466836e+00,	0.000000e+00	1.000000e-00,	-2.806596e-05	
14	5.011872e+00,	0.000000e+00	1.000000e-00,	-3.149052e-05	
15	5.623413e+00,	0.000000e+00	1.000000e-00,	-3.533295e-05	
16	6.309573e+00,	0.000000e+00	1.000000e-00,	-3.964422e-05	
17	7.079458e+00,	0.000000e+00	1.000000e-00,	-4.448155e-05	
18	7.943282e+00,	0.000000e+00	1.000000e-00,	-4.990911e-05	
19	8.912509e+00,	0.000000e+00	1.000000e-00,	-5.599895e-05	
20	1.000000e+01,	0.000000e+00	1.000000e-00,	-6.283185e-05	
21	1.122018e+01,	0.000000e+00	1.000000e-00,	-7.049850e-05	
22	1.258925e+01,	0.000000e+00	1.000000e-00,	-7.910062e-05	
23	1.412538e+01,	0.000000e+00	1.000000e-00,	-8.875235e-05	
24	1.584893e+01,	0.000000e+00	1.000000e-00,	-9.958178e-05	
25	1.778279e+01,	0.000000e+00	1.000000e-00,	-1.117326e-04	
26	1.995262e+01,	0.000000e+00	1.000000e-00,	-1.253660e-04	
27	2.238721e+01,	0.000000e+00	1.000000e-00,	-1.406630e-04	
28	2.511886e+01,	0.000000e+00	1.000000e-00,	-1.578265e-04	
29	2.818383e+01,	0.000000e+00	1.000000e-00,	-1.770842e-04	
30	3.162278e+01,	0.000000e+00	1.000000e-00,	-1.986918e-04	
31	3.548134e+01,	0.000000e+00	1.000000e-00,	-2.229358e-04	
32	3.981072e+01,	0.000000e+00	9.999999e-01,	-2.501381e-04	
33	4.466836e+01,	0.000000e+00	9.999999e-01,	-2.806596e-04	
34	5.011872e+01,	0.000000e+00	9.999999e-01,	-3.149052e-04	
35	5.623413e+01,	0.000000e+00	9.999999e-01,	-3.533294e-04	
36	6.309573e+01,	0.000000e+00	9.999998e-01,	-3.964421e-04	
37	7.079458e+01,	0.000000e+00	9.999998e-01,	-4.448154e-04	
38	7.943282e+01,	0.000000e+00	9.999998e-01,	-4.990910e-04	
39	8.912509e+01,	0.000000e+00	9.999997e-01,	-5.599893e-04	
40	1.000000e+02,	0.000000e+00	9.999996e-01,	-6.283183e-04	
41	1.122018e+02,	0.000000e+00	9.999995e-01,	-7.049846e-04	
42	1.258925e+02,	0.000000e+00	9.999994e-01,	-7.910057e-04	
43	1.412538e+02,	0.000000e+00	9.999992e-01,	-8.875228e-04	
44	1.584893e+02,	0.000000e+00	9.999990e-01,	-9.958168e-04	
45	1.778279e+02,	0.000000e+00	9.999988e-01,	-1.117325e-03	
46	1.995262e+02,	0.000000e+00	9.999984e-01,	-1.253658e-03	
47	2.238721e+02,	0.000000e+00	9.999980e-01,	-1.406627e-03	
48	2.511886e+02,	0.000000e+00	9.999975e-01,	-1.578261e-03	
49	2.818383e+02,	0.000000e+00	9.999969e-01,	-1.770837e-03	
50	3.162278e+02,	0.000000e+00	9.999961e-01,	-1.986910e-03	
51	3.548134e+02,	0.000000e+00	9.999950e-01,	-2.229347e-03	
52	3.981072e+02,	0.000000e+00	9.999937e-01,	-2.501365e-03	
53	4.466836e+02,	0.000000e+00	9.999921e-01,	-2.806574e-03	
54	5.011872e+02,	0.000000e+00	9.999901e-01,	-3.149021e-03	
55	5.623413e+02,	0.000000e+00	9.999875e-01,	-3.533251e-03	
56	6.309573e+02,	0.000000e+00	9.999843e-01,	-3.964360e-03	
57	7.079458e+02,	0.000000e+00	9.999802e-01,	-4.448067e-03	
58	7.943282e+02,	0.000000e+00	9.999751e-01,	-4.990787e-03	
59	8.912509e+02,	0.000000e+00	9.999686e-01,	-5.599719e-03	
60	1.000000e+03,	0.000000e+00	9.999605e-01,	-6.282937e-03	
61	1.122018e+03,	0.000000e+00	9.999503e-01,	-7.049500e-03	
62	1.258925e+03,	0.000000e+00	9.999374e-01,	-7.909567e-03	
63	1.412538e+03,	0.000000e+00	9.999212e-01,	-8.874536e-03	
64	1.584893e+03,	0.000000e+00	9.999008e-01,	-9.957190e-03	
65	1.778279e+03,	0.000000e+00	9.998752e-01,	-1.117186e-02	
66	1.995262e+03,	0.000000e+00	9.998429e-01,	-1.253463e-02	
67	2.238721e+03,	0.000000e+00	9.998022e-01,	-1.406352e-02	
68	2.511886e+03,	0.000000e+00	9.997510e-01,	-1.577872e-02	
69	2.818383e+03,	0.000000e+00	9.996865e-01,	-1.770287e-02	
70	3.162278e+03,	0.000000e+00	9.996054e-01,	-1.986134e-02	
71	3.548134e+03,	0.000000e+00	9.995032e-01,	-2.228251e-02	
72	3.981072e+03,	0.000000e+00	9.993747e-01,	-2.499817e-02	
73	4.466836e+03,	0.000000e+00	9.992129e-01,	-2.804387e-02	
74	5.011872e+03,	0.000000e+00	9.990093e-01,	-3.145933e-02	
75	5.623413e+03,	0.000000e+00	9.987531e-01,	-3.528889e-02	
76	6.309573e+03,	0.000000e+00	9.984308e-01,	-3.958201e-02	
77	7.079458e+03,	0.000000e+00	9.980253e-01,	-4.439371e-02	
78	7.943282e+03,	0.000000e+00	9.975153e-01,	-4.978510e-02	
79	8.912509e+03,	0.000000e+00	9.968739e-01,	-5.582389e-02	
80	1.000000e+04,	0.000000e+00	9.960677e-01,	-6.258478e-02	
81	1.122018e+04,	0.000000e+00	9.950545e-01,	-7.014985e-02	
82	1.258925e+04,	0.000000e+00	9.937820e-01,	-7.860877e-02	
83	1.412538e+04,	0.000000e+00	9.921846e-01,	-8.805871e-02	
84	1.584893e+04,	0.000000e+00	9.901808e-01,	-9.860397e-02	
85	1.778279e+04,	0.000000e+00	9.876698e-01,	-1.103549e-01	
86	1.995262e+04,	0.000000e+00	9.845265e-01,	-1.234262e-01	
87	2.238721e+04,	0.000000e+00	9.805978e-01,	-1.379338e-01	
88	2.511886e+04,	0.000000e+00	9.756962e-01,	-1.539907e-01	
89	2.818383e+04,	0.000000e+00	9.695947e-01,	-1.716999e-01	
90	3.162278e+04,	0.000000e+00	9.620209e-01,	-1.911456e-01	
91	3.548134e+04,	0.000000e+00	9.526528e-01,	-2.123804e-01	
92	3.981072e+04,	0.000000e+00	9.411153e-01,	-2.354088e-01	
93	4.466836e+04,	0.000000e+00	9.269818e-01,	-2.601663e-01	
94	5.011872e+04,	0.000000e+00	9.097813e-01,	-2.864949e-01	
95	5.623413e+04,	0.000000e+00	8.890140e-01,	-3.141148e-01	
96	6.309573e+04,	0.000000e+00	8.641799e-01,	-3.425974e-01	
97	7.079458e+04,	0.000000e+00	8.348215e-01,	-3.713415e-01	
98	7.943282e+04,	0.000000e+00	8.005816e-01,	-3.995632e-01	
99	8.912509e+04,	0.000000e+00	7.612736e-01,	-4.263052e-01	
100	1.000000e+05,	0.000000e+00	7.169568e-01,	-4.504772e-01	
101	1.122018e+05,	0.000000e+00	6.680010e-01,	-4.709306e-01	
102	1.258925e+05,	0.000000e+00	6.151231e-01,	-4.865662e-01	
103	1.412538e+05,	0.000000e+00	5.593786e-01,	-4.964617e-01	
104	1.584893e+05,	0.000000e+00	5.020955e-01,	-4.999956e-01	
105	1.778279e+05,	0.000000e+00	4.447573e-01,	-4.969389e-01	
106	1.995262e+05,	0.000000e+00	3.888533e-01,	-4.874899e-01	
107	2.238721e+05,	0.000000e+00	3.357273e-01,	-4.722441e-01	
108	2.511886e+05,	0.000000e+00	2.864575e-01,	-4.521057e-01	
109	2.818383e+05,	0.000000e+00	2.417864e-01,	-4.281655e-01	
110	3.162278e+05,	0.000000e+00	2.021083e-01,	-4.015726e-01	
111	3.548134e+05,	0.000000e+00	1.675031e-01,	-3.734245e-01	
112	3.981072e+05,	0.000000e+00	1.377997e-01,	-3.446897e-01	
113	4.466836e+05,	0.000000e+00	1.126509e-01,	-3.161656e-01	
114	5.011872e+05,	0.000000e+00	9.160420e-02,	-2.884664e-01	
115	5.623413e+05,	0.000000e+00	7.416102e-02,	-2.620328e-01	
116	6.309573e+05,	0.000000e+00	5.982063e-02,	-2.371542e-01	
117	7.079458e+05,	0.000000e+00	4.810912e-02,	-2.139968e-01	
118	7.943282e+05,	0.000000e+00	3.859633e-02,	-1.926309e-01	
119	8.912509e+05,	0.000000e+00	3.090347e-02,	-1.730562e-01	
120	1.000000e+06,	0.000000e+00	2.470452e-02,	-1.552231e-01	
121	1.122018e+06,	0.000000e+00	1.972372e-02,	-1.390492e-01	
122	1.258925e+06,	0.000000e+00	1.573092e-02,	-1.244325e-01	
123	1.412538e+06,	0.000000e+00	1.253607e-02,	-1.112606e-01	
124	1.584893e+06,	0.000000e+00	9.983497e-03,	-9.941744e-02	
125	1.778279e+06,	0.000000e+00	7.946490e-03,	-8.878820e-02	
126	1.995262e+06,	0.000000e+00	6.322455e-03,	-7.926211e-02	
127	2.238721e+06,	0.000000e+00	5.028643e-03,	-7.073441e-02	
128	2.511886e+06,	0.000000e+00	3.998529e-03,	-6.310737e-02	
129	2.818383e+06,	0.000000e+00	3.178759e-03,	-5.629080e-02	
130	3.162278e+06,	0.000000e+00	2.526630e-03,	-5.020205e-02	
131	3.548134e+06,	0.000000e+00	2.008017e-03,	-4.476589e-02	
132	3.981072e+06,	0.000000e+00	1.595683e-03,	-3.991412e-02	
133	4.466836e+06,	0.000000e+00	1.267912e-03,	-3.558518e-02	
134	5.011872e+06,	0.000000e+00	1.007401e-03,	-3.172360e-02	
135	5.623413e+06,	0.000000e+00	8.003732e-04,	-2.827954e-02	
136	6.309573e+06,	0.000000e+00	6.358637e-04,	-2.520832e-02	
137	7.079458e+06,	0.000000e+00	5.051505e-04,	-2.246988e-02	
138	7.943282e+06,	0.000000e+00	4.012970e-04,	-2.002838e-02	
139	8.912509e+06,	0.000000e+00	3.187879e-04,	-1.785179e-02	
140	1.000000e+07,	0.000000e+00	2.532388e-04,	-1.591146e-02	
141	1.122018e+07,	0.000000e+00	2.011652e-04,	-1.418185e-02	
142	1.258925e+07,	0.000000e+00	1.597978e-04,	-1.264011e-02	
143	1.412538e+07,	0.000000e+00	1.269361e-04,	-1.126588e-02	
144	1.584893e+07,	0.000000e+00	1.008316e-04,	-1.004099e-02	
145	1.778279e+07,	0.000000e+00	8.009501e-05,	-8.949223e-03	
146	1.995262e+07,	0.000000e+00	6.362278e-05,	-7.976135e-03	
147	2.238721e+07,	0.000000e+00	5.053803e-05,	-7.108831e-03	
148	2.511886e+07,	0.000000e+00	4.014420e-05,	-6.335818e-03	
149	2.818383e+07,	0.000000e+00	3.188794e-05,	-5.646850e-03	
150	3.162278e+07,	0.000000e+00	2.532965e-05,	-5.032794e-03	
151	3.548134e+07,	0.000000e+00	2.012016e-05,	-4.485505e-03	
152	3.981072e+07,	0.000000e+00	1.598208e-05,	-3.997728e-03	
153	4.466836e+07,	0.000000e+00	1.269506e-05,	-3.562990e-03	
154	5.011872e+07,	0.000000e+00	1.008407e-05,	-3.175527e-03	
155	5.623413e+07,	0.000000e+00	8.010079e-06,	-2.830197e-03	
156	6.309573e+07,	0.000000e+00	6.362642e-06,	-2.522420e-03	
157	7.079458e+07,	0.000000e+00	5.054033e-06,	-2.248112e-03	
158	7.943282e+07,	0.000000e+00	4.014565e-06,	-2.003634e-03	
159	8.912509e+07,	0.000000e+00	3.188885e-06,	-1.785742e-03	
160	1.000000e+08,	0.000000e+00	2.533023e-06,	-1.591545e-03	

                              SPICE WEB SIMULATION
                              AC Analysis  Sun Sep 22 21:13:52  2002
--------------------------------------------------------------------------------
